T2E08 000:077.637   SEGGER J-Link V9.52 Log File
T2E08 000:077.812   DLL Compiled: Jun 18 2026 16:21:43
T2E08 000:077.817   Logging started @ 2026-06-26 22:57
T2E08 000:077.823   Process: C:\Users\KevinXu\AppData\Local\Keil_v5\UV4\UV4.exe
T2E08 000:077.831 - 77.827ms 
T2E08 000:077.840 JLINK_SetWarnOutHandler(...)
T2E08 000:077.845 - 0.006ms 
T2E08 000:077.852 JLINK_OpenEx(...)
T2E08 000:080.864   Firmware: J-Link Lite-XMC4200 Rev.1 compiled May  4 2026 12:38:23
T2E08 000:084.023   Firmware: J-Link Lite-XMC4200 Rev.1 compiled May  4 2026 12:38:23
T2E08 000:103.405   Hardware: V1.00
T2E08 000:103.431   S/N: 591185154
T2E08 000:103.438   OEM: SEGGER
T2E08 000:103.451   Feature(s): None
T2E08 000:104.569   Bootloader: 2012 Oct 05
T2E08 000:105.294   USB speed mode: Full speed (12 MBit/s)
T2E08 000:105.684   TELNET listener socket opened on port 19021
T2E08 000:105.913   WEBSRV WEBSRV_Init(): Starting webserver thread(s)
T2E08 000:106.072   WEBSRV Webserver running on local port 19080
T2E08 000:106.273   Looking for J-Link GUI Server exe at: C:\Users\KevinXu\AppData\Local\Keil_v5\ARM\Segger\JLinkGUIServer.exe
T2E08 000:106.378   Looking for J-Link GUI Server exe at: C:\Program Files\SEGGER\JLink_V952\JLinkGUIServer.exe
T2E08 000:106.413   Forking J-Link GUI Server: C:\Program Files\SEGGER\JLink_V952\JLinkGUIServer.exe
T2E08 000:121.081   J-Link GUI Server info: "J-Link GUI server V9.52 "
T2E08 000:122.639 - 44.782ms returns "O.K."
T2E08 000:122.669 JLINK_GetEmuCaps()
T2E08 000:122.679 - 0.008ms returns 0xB8EA5A33
T2E08 000:122.687 JLINK_TIF_GetAvailable(...)
T2E08 000:122.825 - 0.137ms 
T2E08 000:122.841 JLINK_SetErrorOutHandler(...)
T2E08 000:122.847 - 0.006ms 
T2E08 000:122.870 JLINK_ExecCommand("ProjectFile = "C:\Users\KevinXu\Documents\keil_uvision_projects\TLE_test_programs\keil\JLinkSettings.ini"", ...). 
T2E08 000:135.212   Ref file found at: C:\Users\KevinXu\AppData\Local\Keil_v5\ARM\Segger\JLinkDevices.ref
T2E08 000:135.307   REF file references invalid XML file: C:\Program Files\SEGGER\JLink_V952\JLinkDevices.xml
T2E08 000:135.431 - 12.561ms returns 0x00
T2E08 000:135.464 JLINK_ExecCommand("Device = TLE9855QX", ...). 
T2E08 000:136.216   Flash bank @ 0x10FFFFFC: SFL: Parsing sectorization info from ELF file
T2E08 000:136.231     FlashDevice.SectorInfo[0]: .SectorSize = 0x00000004, .SectorStartAddr = 0x00000000
T2E08 000:136.254   Flash bank @ 0x11000000: SFL: Parsing sectorization info from ELF file
T2E08 000:136.262     FlashDevice.SectorInfo[0]: .SectorSize = 0x00001000, .SectorStartAddr = 0x00000000
T2E08 000:136.297   Flash bank @ 0x11017000: SFL: Parsing sectorization info from ELF file
T2E08 000:136.305     FlashDevice.SectorInfo[0]: .SectorSize = 0x00001000, .SectorStartAddr = 0x00000000
T2E08 000:136.341   Device "TLE9855QX" selected.
T2E08 000:136.571 - 1.106ms returns 0x00
T2E08 000:136.589   ERROR: Unknown command
T2E08 000:136.599 JLINK_GetHardwareVersion()
T2E08 000:136.605 - 0.005ms returns 10000
T2E08 000:136.612 JLINK_GetDLLVersion()
T2E08 000:136.618 - 0.006ms returns 95200
T2E08 000:136.626 JLINK_GetOEMString(...)
T2E08 000:136.632 JLINK_GetFirmwareString(...)
T2E08 000:136.637 - 0.005ms 
T2E08 000:136.654 JLINK_GetDLLVersion()
T2E08 000:136.660 - 0.005ms returns 95200
T2E08 000:136.666 JLINK_GetCompileDateTime()
T2E08 000:136.671 - 0.005ms 
T2E08 000:136.680 JLINK_GetFirmwareString(...)
T2E08 000:136.686 - 0.005ms 
T2E08 000:136.695 JLINK_GetHardwareVersion()
T2E08 000:136.700 - 0.005ms returns 10000
T2E08 000:136.709 JLINK_GetSN()
T2E08 000:136.715 - 0.005ms returns 591185154
T2E08 000:136.723 JLINK_GetOEMString(...)
T2E08 000:136.733 JLINK_TIF_Select(JLINKARM_TIF_SWD)
T2E08 000:137.371 - 0.638ms returns 0x00
T2E08 000:137.386 JLINK_HasError()
T2E08 000:137.398 JLINK_SetSpeed(5000)
T2E08 000:137.508 - 0.113ms 
T2E08 000:137.520 JLINK_GetId()
T2E08 000:137.694   InitTarget() start
T2E08 000:137.709    J-Link Script File: Executing InitTarget()
T2E08 000:193.907   InitTarget() end - Took 56.1ms
T2E08 000:195.369   Found SW-DP with ID 0x0BB11477
T2E08 000:199.716   DPIDR: 0x0BB11477
T2E08 000:199.834   CoreSight SoC-400 or earlier
T2E08 000:199.890   Scanning AP map to find all available APs
T2E08 000:201.196   AP[1]: Stopped AP scan as end of AP map has been reached
T2E08 000:201.290   AP[0]: AHB-AP (IDR: 0x04770021, ADDR: 0x00000000)
T2E08 000:201.335   Iterating through AP map to find AHB-AP to use
T2E08 000:202.734   AP[0]: Core found
T2E08 000:202.814   AP[0]: AHB-AP ROM base: 0xF0000000
T2E08 000:203.556   CPUID register: 0x410CC200. Implementer code: 0x41 (ARM)
T2E08 000:203.644   Found Cortex-M0 r0p0, Little endian.
T2E08 000:205.753   -- Max. mem block: 0x00003508
T2E08 000:206.655   CPU_ReadMem(4 bytes @ 0xE000EDF0)
T2E08 000:207.361   CPU_ReadMem(4 bytes @ 0xE0002000)
T2E08 000:208.040   FPUnit: 4 code (BP) slots and 0 literal slots
T2E08 000:208.097   CPU_ReadMem(4 bytes @ 0xE000EDFC)
T2E08 000:208.761   CPU_WriteMem(4 bytes @ 0xE000EDFC)
T2E08 000:209.418   CPU_ReadMem(4 bytes @ 0xE0001000)
T2E08 000:210.027   CPU_WriteMem(4 bytes @ 0xE0001000)
T2E08 000:210.647   CoreSight components:
T2E08 000:210.704   ROMTbl[0] @ F0000000
T2E08 000:210.738   CPU_ReadMem(64 bytes @ 0xF0000000)
T2E08 000:211.995   CPU_ReadMem(32 bytes @ 0xE00FFFE0)
T2E08 000:212.868   [0][0]: E00FF000 CID B105100D PID 000BB471 ROM Table
T2E08 000:212.938   ROMTbl[1] @ E00FF000
T2E08 000:212.970   CPU_ReadMem(64 bytes @ 0xE00FF000)
T2E08 000:213.904   CPU_ReadMem(32 bytes @ 0xE000EFE0)
T2E08 000:214.712   [1][0]: E000E000 CID B105E00D PID 000BB008 SCS
T2E08 000:214.783   CPU_ReadMem(32 bytes @ 0xE0002FE0)
T2E08 000:215.467   [1][2]: E0002000 CID B105E00D PID 000BB00B FPB
T2E08 000:216.074 - 78.551ms returns 0x0BB11477
T2E08 000:216.145 JLINK_GetDLLVersion()
T2E08 000:216.167 - 0.021ms returns 95200
T2E08 000:216.188 JLINK_CORE_GetFound()
T2E08 000:216.207 - 0.018ms returns 0x60000FF
T2E08 000:216.232 JLINK_GetDebugInfo(0x100 = JLINKARM_ROM_TABLE_ADDR_INDEX)
T2E08 000:216.253   Value=0xF0000000
T2E08 000:216.279 - 0.047ms returns 0
T2E08 000:217.658 JLINK_GetDebugInfo(0x100 = JLINKARM_ROM_TABLE_ADDR_INDEX)
T2E08 000:217.698   Value=0xF0000000
T2E08 000:217.726 - 0.069ms returns 0
T2E08 000:217.750 JLINK_GetDebugInfo(0x101 = JLINKARM_DEBUG_INFO_ETM_ADDR_INDEX)
T2E08 000:217.768   Value=0x00000000
T2E08 000:217.794 - 0.045ms returns 0
T2E08 000:217.829 JLINK_ReadMemEx(0xE0041FF0, 0x10 Bytes, Flags = 0x02000004)
T2E08 000:217.877   CPU_ReadMem(16 bytes @ 0xE0041FF0)
T2E08 000:218.624   Data:  00 00 00 00 00 00 00 00 00 00 00 00 00 00 00 00
T2E08 000:218.672 - 0.843ms returns 16 (0x10)
T2E08 000:218.700 JLINK_GetDebugInfo(0x102 = JLINKARM_DEBUG_INFO_MTB_ADDR_INDEX)
T2E08 000:218.719   Value=0x00000000
T2E08 000:218.746 - 0.047ms returns 0
T2E08 000:218.767 JLINK_GetDebugInfo(0x103 = JLINKARM_DEBUG_INFO_TPIU_ADDR_INDEX)
T2E08 000:218.785   Value=0x00000000
T2E08 000:218.811 - 0.044ms returns 0
T2E08 000:218.832 JLINK_GetDebugInfo(0x104 = JLINKARM_DEBUG_INFO_ITM_ADDR_INDEX)
T2E08 000:218.851   Value=0xE0000000
T2E08 000:218.877 - 0.045ms returns 0
T2E08 000:218.897 JLINK_GetDebugInfo(0x105 = JLINKARM_DEBUG_INFO_DWT_ADDR_INDEX)
T2E08 000:218.915   Value=0xE0001000
T2E08 000:218.941 - 0.044ms returns 0
T2E08 000:218.962 JLINK_GetDebugInfo(0x106 = JLINKARM_DEBUG_INFO_FPB_ADDR_INDEX)
T2E08 000:218.980   Value=0xE0002000
T2E08 000:219.005 - 0.043ms returns 0
T2E08 000:219.027 JLINK_GetDebugInfo(0x107 = JLINKARM_DEBUG_INFO_NVIC_ADDR_INDEX)
T2E08 000:219.045   Value=0xE000E000
T2E08 000:219.070 - 0.044ms returns 0
T2E08 000:219.091 JLINK_GetDebugInfo(0x10C = JLINKARM_DEBUG_INFO_DBG_ADDR_INDEX)
T2E08 000:219.109   Value=0xE000EDF0
T2E08 000:219.135 - 0.044ms returns 0
T2E08 000:219.156 JLINK_GetDebugInfo(0x01 = Unknown)
T2E08 000:219.174   Value=0x00000000
T2E08 000:219.200 - 0.044ms returns 0
T2E08 000:219.221 JLINK_ReadMemU32(0xE000ED00, 0x1 Items)
T2E08 000:219.249   CPU_ReadMem(4 bytes @ 0xE000ED00)
T2E08 000:219.844   Data:  00 C2 0C 41
T2E08 000:219.901   Debug reg: CPUID
T2E08 000:219.929 - 0.707ms returns 1 (0x1)
T2E08 000:219.965 JLINK_GetDebugInfo(0x10F = JLINKARM_DEBUG_INFO_HAS_CORTEX_M_SECURITY_EXT_INDEX)
T2E08 000:219.990   Value=0x00000000
T2E08 000:220.017 - 0.052ms returns 0
T2E08 000:220.039 JLINK_HasError()
T2E08 000:220.063 JLINK_SetResetType(JLINKARM_CM3_RESET_TYPE_NORMAL)
T2E08 000:220.082 - 0.019ms returns JLINKARM_CM3_RESET_TYPE_NORMAL
T2E08 000:220.107 JLINK_Reset()
T2E08 000:220.160   ResetTarget() start
T2E08 000:220.189    J-Link Script File: Executing ResetTarget()
T2E08 000:223.977   CPU_ReadMem(64 bytes @ 0x11000000)
T2E08 000:225.418    -- Updating C cache (64 bytes @ 0x11000000)
T2E08 000:225.488    -- Read from C cache (4 bytes @ 0x11000004)
T2E08 000:225.552   CPU_WriteMem(4 bytes @ 0xE0002000)
T2E08 000:226.224   CPU_ReadMem(4 bytes @ 0xE0002008)
T2E08 000:226.895   CPU_WriteMem(4 bytes @ 0xE0002008)
T2E08 000:227.581   CPU_WriteMem(4 bytes @ 0xE000ED0C)
T2E08 000:331.275   CPU_WriteMem(4 bytes @ 0xE0002008)
T2E08 000:332.030   ResetTarget() end - Took 111ms
T2E08 000:332.113   Device specific reset executed.
T2E08 000:336.102   CPU_WriteMem(4 bytes @ 0xE0002000)
T2E08 000:336.857   CPU_ReadMem(4 bytes @ 0xE000EDFC)
T2E08 000:337.555   CPU_ReadMem(4 bytes @ 0xE0001000)
T2E08 000:338.347   CPU_WriteMem(4 bytes @ 0xE0001000)
T2E08 000:339.045 - 118.935ms 
T2E08 000:339.163 JLINK_HasError()
T2E08 000:339.213 JLINK_ReadReg(R15 (PC))
T2E08 000:339.241 - 0.038ms returns 0x11000146
T2E08 000:339.270 JLINK_ReadReg(XPSR)
T2E08 000:339.293 - 0.022ms returns 0x61000000
T2E08 000:340.549 JLINK_Halt()
T2E08 000:340.606 - 0.055ms returns 0x00
T2E08 000:340.637 JLINK_ReadMemU32(0xE000EDF0, 0x1 Items)
T2E08 000:340.678   CPU_ReadMem(4 bytes @ 0xE000EDF0)
T2E08 000:341.331   Data:  03 00 03 00
T2E08 000:341.389   Debug reg: DHCSR
T2E08 000:341.424 - 0.787ms returns 1 (0x1)
T2E08 000:341.474 JLINK_WriteU32(0xE000EDF0, 0xA05F0003)
T2E08 000:341.498   Debug reg: DHCSR
T2E08 000:342.245   CPU_WriteMem(4 bytes @ 0xE000EDF0)
T2E08 000:342.965 - 1.490ms returns 0 (0x00000000)
T2E08 000:343.026 JLINK_WriteU32(0xE000EDFC, 0x01000000)
T2E08 000:343.051   Debug reg: DEMCR
T2E08 000:343.102   CPU_WriteMem(4 bytes @ 0xE000EDFC)
T2E08 000:343.777 - 0.750ms returns 0 (0x00000000)
T2E08 000:343.910 JLINK_GetHWStatus(...)
T2E08 000:344.345 - 0.432ms returns 0
T2E08 000:344.457 JLINK_GetNumBPUnits(Type = 0xFFFFFF00)
T2E08 000:344.486 - 0.028ms returns 0x04
T2E08 000:344.512 JLINK_GetNumBPUnits(Type = 0xF0)
T2E08 000:344.535 - 0.023ms returns 0x2000
T2E08 000:344.560 JLINK_GetNumWPUnits()
T2E08 000:344.583 - 0.022ms returns 0
T2E08 000:344.637 JLINK_GetSpeed()
T2E08 000:344.661 - 0.023ms returns 3000
T2E08 000:344.705 JLINK_ReadMemU32(0xE000E004, 0x1 Items)
T2E08 000:344.745   CPU_ReadMem(4 bytes @ 0xE000E004)
T2E08 000:345.337   Data:  00 00 00 00
T2E08 000:345.395 - 0.689ms returns 1 (0x1)
T2E08 000:345.464 JLINK_HasError()
T2E08 000:345.497 JLINK_ReadReg(R15 (PC))
T2E08 000:345.523 - 0.025ms returns 0x11000146
T2E08 000:345.549 JLINK_ReadReg(XPSR)
T2E08 000:345.572 - 0.022ms returns 0x61000000
T2E08 000:489.062 JLINK_HasError()
T2E08 000:489.090 JLINK_SetResetType(JLINKARM_CM3_RESET_TYPE_NORMAL)
T2E08 000:489.097 - 0.006ms returns JLINKARM_CM3_RESET_TYPE_NORMAL
T2E08 000:489.103 JLINK_Reset()
T2E08 000:489.124   ResetTarget() start
T2E08 000:489.132    J-Link Script File: Executing ResetTarget()
T2E08 000:489.144   CPU_ReadMem(64 bytes @ 0x11000000)
T2E08 000:490.045    -- Updating C cache (64 bytes @ 0x11000000)
T2E08 000:490.071    -- Read from C cache (4 bytes @ 0x11000004)
T2E08 000:490.101   CPU_WriteMem(4 bytes @ 0xE0002000)
T2E08 000:490.491   CPU_ReadMem(4 bytes @ 0xE0002008)
T2E08 000:490.872   CPU_WriteMem(4 bytes @ 0xE0002008)
T2E08 000:491.290   CPU_WriteMem(4 bytes @ 0xE000ED0C)
T2E08 000:593.722   CPU_WriteMem(4 bytes @ 0xE0002008)
T2E08 000:594.685   ResetTarget() end - Took 105ms
T2E08 000:594.772   Device specific reset executed.
T2E08 000:598.658   CPU_WriteMem(4 bytes @ 0xE0002000)
T2E08 000:599.308   CPU_ReadMem(4 bytes @ 0xE000EDFC)
T2E08 000:599.981   CPU_ReadMem(4 bytes @ 0xE0001000)
T2E08 000:600.565   CPU_WriteMem(4 bytes @ 0xE0001000)
T2E08 000:601.244 - 112.139ms 
T2E08 000:602.621 JLINK_HasError()
T2E08 000:602.678 JLINK_ReadReg(R15 (PC))
T2E08 000:602.706 - 0.026ms returns 0x11000146
T2E08 000:602.733 JLINK_ReadReg(XPSR)
T2E08 000:602.756 - 0.022ms returns 0x61000000
T2E08 000:602.905 JLINK_HasError()
T2E08 000:602.949 JLINK_ReadReg(R0)
T2E08 000:602.975 - 0.036ms returns 0x11000E71
T2E08 000:603.000 JLINK_ReadReg(R1)
T2E08 000:603.022 - 0.021ms returns 0x00000000
T2E08 000:603.048 JLINK_ReadReg(R2)
T2E08 000:603.070 - 0.022ms returns 0x00000000
T2E08 000:603.095 JLINK_ReadReg(R3)
T2E08 000:603.117 - 0.021ms returns 0x00000000
T2E08 000:603.141 JLINK_ReadReg(R4)
T2E08 000:603.164 - 0.022ms returns 0x00000000
T2E08 000:603.189 JLINK_HasError()
T2E08 000:736.646 JLINK_ReadMemEx(0x11000146, 0x2 Bytes, Flags = 0x02000000)
T2E08 000:736.675   CPU_ReadMem(64 bytes @ 0x11000140)
T2E08 000:737.533    -- Updating C cache (64 bytes @ 0x11000140)
T2E08 000:737.544    -- Read from C cache (2 bytes @ 0x11000146)
T2E08 000:737.553   Data:  80 47
T2E08 000:737.561 - 0.915ms returns 2 (0x2)
T2E08 000:737.612 JLINK_ReadMemEx(0x11000148, 0x3C Bytes, Flags = 0x02000000)
T2E08 000:737.621   CPU_ReadMem(64 bytes @ 0x11000180)
T2E08 000:738.379    -- Updating C cache (64 bytes @ 0x11000180)
T2E08 000:738.415    -- Read from C cache (60 bytes @ 0x11000148)
T2E08 000:738.423   Data:  09 48 00 47 FE E7 FE E7 FE E7 FE E7 FE E7 FE E7 ...
T2E08 000:738.431 - 0.819ms returns 60 (0x3C)
T2E08 000:738.438 JLINK_ReadMemEx(0x11000148, 0x2 Bytes, Flags = 0x02000000)
T2E08 000:738.445    -- Read from C cache (2 bytes @ 0x11000148)
T2E08 000:738.452   Data:  09 48
T2E08 000:738.460 - 0.021ms returns 2 (0x2)
T2E08 001:246.683 JLINK_ReadMemEx(0x11000148, 0x3C Bytes, Flags = 0x02000000)
T2E08 001:246.728    -- Read from C cache (60 bytes @ 0x11000148)
T2E08 001:246.742   Data:  09 48 00 47 FE E7 FE E7 FE E7 FE E7 FE E7 FE E7 ...
T2E08 001:246.753 - 0.070ms returns 60 (0x3C)
T2E08 001:246.762 JLINK_ReadMemEx(0x11000148, 0x2 Bytes, Flags = 0x02000000)
T2E08 001:246.771    -- Read from C cache (2 bytes @ 0x11000148)
T2E08 001:246.780   Data:  09 48
T2E08 001:246.788 - 0.026ms returns 2 (0x2)
T2E08 001:246.796 JLINK_ReadMemEx(0x1100014A, 0x2 Bytes, Flags = 0x02000000)
T2E08 001:246.801    -- Read from C cache (2 bytes @ 0x1100014A)
T2E08 001:246.809   Data:  00 47
T2E08 001:246.816 - 0.020ms returns 2 (0x2)
T3B6C 001:554.833 JLINK_ReadMemEx(0x11000146, 0x2 Bytes, Flags = 0x02000000)
T3B6C 001:554.863    -- Read from C cache (2 bytes @ 0x11000146)
T3B6C 001:554.871   Data:  80 47
T3B6C 001:554.880 - 0.047ms returns 2 (0x2)
T3B6C 001:554.887 JLINK_HasError()
T3B6C 001:554.896 JLINK_SetBPEx(Addr = 0x110010A0, Type = 0xFFFFFFF2)
T3B6C 001:554.903 - 0.007ms returns 0x00000001
T3B6C 001:554.909 JLINK_HasError()
T3B6C 001:554.915 JLINK_HasError()
T3B6C 001:554.921 JLINK_Go()
T3B6C 001:555.255   CPU_WriteMem(4 bytes @ 0xE0002000)
T3B6C 001:555.647   CPU_ReadMem(4 bytes @ 0xE0001000)
T3B6C 001:555.993   CPU_WriteMem(4 bytes @ 0xE0001000)
T3B6C 001:556.330   CPU_WriteMem(4 bytes @ 0xE0002008)
T3B6C 001:556.344   CPU_WriteMem(4 bytes @ 0xE000200C)
T3B6C 001:556.352   CPU_WriteMem(4 bytes @ 0xE0002010)
T3B6C 001:556.359   CPU_WriteMem(4 bytes @ 0xE0002014)
T3B6C 001:557.456   CPU_WriteMem(4 bytes @ 0xE0001004)
T3B6C 001:560.201   Memory map 'after startup completion point' is active
T3B6C 001:560.227 - 5.305ms 
T3B6C 001:661.283 JLINK_HasError()
T3B6C 001:661.312 JLINK_IsHalted()
T3B6C 001:664.703 - 3.390ms returns TRUE
T3B6C 001:664.732 JLINK_HasError()
T3B6C 001:664.760 JLINK_Halt()
T3B6C 001:664.766 - 0.005ms returns 0x00
T3B6C 001:664.773 JLINK_IsHalted()
T3B6C 001:664.778 - 0.005ms returns TRUE
T3B6C 001:664.784 JLINK_IsHalted()
T3B6C 001:664.789 - 0.005ms returns TRUE
T3B6C 001:664.807 JLINK_IsHalted()
T3B6C 001:664.831 - 0.022ms returns TRUE
T3B6C 001:665.182 JLINK_HasError()
T3B6C 001:665.196 JLINK_ReadReg(R15 (PC))
T3B6C 001:665.263 - 0.067ms returns 0x110010A0
T3B6C 001:665.273 JLINK_ReadReg(XPSR)
T3B6C 001:665.278 - 0.005ms returns 0x01000000
T3B6C 001:665.288 JLINK_HasError()
T3B6C 001:665.300 JLINK_ClrBPEx(BPHandle = 0x00000001)
T3B6C 001:665.306 - 0.005ms returns 0x00
T3B6C 001:665.311 JLINK_HasError()
T3B6C 001:665.317 JLINK_HasError()
T3B6C 001:665.323 JLINK_ReadMemU32(0xE000ED30, 0x1 Items)
T3B6C 001:665.334   CPU_ReadMem(4 bytes @ 0xE000ED30)
T3B6C 001:665.746   Data:  02 00 00 00
T3B6C 001:665.773 - 0.449ms returns 1 (0x1)
T3B6C 001:665.821 JLINK_HasError()
T3B6C 001:665.829 JLINK_ReadReg(R0)
T3B6C 001:665.835 - 0.005ms returns 0x18000078
T3B6C 001:665.840 JLINK_ReadReg(R1)
T3B6C 001:665.845 - 0.004ms returns 0x18000078
T3B6C 001:665.851 JLINK_ReadReg(R2)
T3B6C 001:665.856 - 0.004ms returns 0x18000078
T3B6C 001:665.861 JLINK_ReadReg(R3)
T3B6C 001:665.866 - 0.004ms returns 0x18000078
T3B6C 001:665.871 JLINK_ReadReg(R4)
T3B6C 001:665.876 - 0.004ms returns 0x110011D0
T3B6C 001:665.881 JLINK_ReadReg(R5)
T3B6C 001:665.886 - 0.004ms returns 0x18000000
T3B6C 001:665.892 JLINK_ReadReg(R6)
T3B6C 001:665.897 - 0.004ms returns 0x00000000
T3B6C 001:665.902 JLINK_ReadReg(R7)
T3B6C 001:665.907 - 0.004ms returns 0x00000000
T3B6C 001:665.912 JLINK_ReadReg(R8)
T3B6C 001:665.917 - 0.004ms returns 0x00000000
T3B6C 001:665.923 JLINK_ReadReg(R9)
T3B6C 001:665.927 - 0.004ms returns 0x00000000
T3B6C 001:665.933 JLINK_ReadReg(R10)
T3B6C 001:665.938 - 0.004ms returns 0x110011D0
T3B6C 001:665.943 JLINK_ReadReg(R11)
T3B6C 001:665.948 - 0.004ms returns 0x110011D0
T3B6C 001:665.953 JLINK_ReadReg(R12)
T3B6C 001:665.958 - 0.004ms returns 0x00000000
T3B6C 001:665.964 JLINK_ReadReg(R13 (SP))
T3B6C 001:665.969 - 0.005ms returns 0x18000278
T3B6C 001:665.974 JLINK_ReadReg(R14)
T3B6C 001:665.979 - 0.004ms returns 0x11000133
T3B6C 001:665.985 JLINK_ReadReg(R15 (PC))
T3B6C 001:665.990 - 0.004ms returns 0x110010A0
T3B6C 001:665.995 JLINK_ReadReg(XPSR)
T3B6C 001:666.000 - 0.005ms returns 0x01000000
T3B6C 001:666.005 JLINK_ReadReg(MSP)
T3B6C 001:666.010 - 0.004ms returns 0x18000278
T3B6C 001:666.016 JLINK_ReadReg(PSP)
T3B6C 001:666.021 - 0.004ms returns 0xFFFFFFFC
T3B6C 001:666.026 JLINK_ReadReg(CFBP)
T3B6C 001:666.031 - 0.004ms returns 0x00000000
T2E08 001:669.534 JLINK_HasError()
T2E08 001:672.717 JLINK_ReadMemEx(0x110010A0, 0x3C Bytes, Flags = 0x02000000)
T2E08 001:672.750   CPU_ReadMem(128 bytes @ 0x11001080)
T2E08 001:674.097    -- Updating C cache (128 bytes @ 0x11001080)
T2E08 001:674.123    -- Read from C cache (60 bytes @ 0x110010A0)
T2E08 001:674.133   Data:  80 B5 82 B0 00 20 01 90 FF F7 0A FF 00 F0 02 F8 ...
T2E08 001:674.141 - 1.425ms returns 60 (0x3C)
T2E08 001:674.152 JLINK_ReadMemEx(0x110010A0, 0x2 Bytes, Flags = 0x02000000)
T2E08 001:674.159    -- Read from C cache (2 bytes @ 0x110010A0)
T2E08 001:674.166   Data:  80 B5
T2E08 001:674.174 - 0.022ms returns 2 (0x2)
T2E08 001:674.182 JLINK_ReadMemEx(0x110010A2, 0x2 Bytes, Flags = 0x02000000)
T2E08 001:674.187    -- Read from C cache (2 bytes @ 0x110010A2)
T2E08 001:674.194   Data:  82 B0
T2E08 001:674.201 - 0.019ms returns 2 (0x2)
T2E08 001:674.218 JLINK_ReadMemEx(0x110010A2, 0x2 Bytes, Flags = 0x02000000)
T2E08 001:674.224    -- Read from C cache (2 bytes @ 0x110010A2)
T2E08 001:674.231   Data:  82 B0
T2E08 001:674.238 - 0.020ms returns 2 (0x2)
T2E08 001:674.244 JLINK_ReadMemEx(0x110010A4, 0x3C Bytes, Flags = 0x02000000)
T2E08 001:674.249    -- Read from C cache (60 bytes @ 0x110010A4)
T2E08 001:674.257   Data:  00 20 01 90 FF F7 0A FF 00 F0 02 F8 FF E7 FE E7 ...
T2E08 001:674.264 - 0.020ms returns 60 (0x3C)
T2E08 001:674.270 JLINK_ReadMemEx(0x110010A4, 0x2 Bytes, Flags = 0x02000000)
T2E08 001:674.275    -- Read from C cache (2 bytes @ 0x110010A4)
T2E08 001:674.282   Data:  00 20
T2E08 001:674.289 - 0.019ms returns 2 (0x2)
T2E08 001:674.296 JLINK_ReadMemEx(0x110010A4, 0x3C Bytes, Flags = 0x02000000)
T2E08 001:674.302    -- Read from C cache (60 bytes @ 0x110010A4)
T2E08 001:674.310   Data:  00 20 01 90 FF F7 0A FF 00 F0 02 F8 FF E7 FE E7 ...
T2E08 001:674.324 - 0.027ms returns 60 (0x3C)
T2E08 001:674.330 JLINK_ReadMemEx(0x110010A4, 0x2 Bytes, Flags = 0x02000000)
T2E08 001:674.335    -- Read from C cache (2 bytes @ 0x110010A4)
T2E08 001:674.342   Data:  00 20
T2E08 001:674.349 - 0.019ms returns 2 (0x2)
T2E08 001:674.355 JLINK_ReadMemEx(0x110010A6, 0x2 Bytes, Flags = 0x02000000)
T2E08 001:674.360    -- Read from C cache (2 bytes @ 0x110010A6)
T2E08 001:674.367   Data:  01 90
T2E08 001:674.374 - 0.019ms returns 2 (0x2)
T2E08 004:100.884 JLINK_ReadMemEx(0x11001152, 0x2 Bytes, Flags = 0x02000000)
T2E08 004:100.956   CPU_ReadMem(64 bytes @ 0x11001140)
T2E08 004:102.268    -- Updating C cache (64 bytes @ 0x11001140)
T2E08 004:102.338    -- Read from C cache (2 bytes @ 0x11001152)
T2E08 004:102.365   Data:  80 B5
T2E08 004:102.392 - 1.509ms returns 2 (0x2)
T2E08 004:102.426 JLINK_ReadMemEx(0x11001154, 0x3C Bytes, Flags = 0x02000000)
T2E08 004:102.458   CPU_ReadMem(64 bytes @ 0x11001180)
T2E08 004:103.455    -- Updating C cache (64 bytes @ 0x11001180)
T2E08 004:103.516    -- Read from C cache (60 bytes @ 0x11001154)
T2E08 004:103.546   Data:  FF E7 FF F7 29 FF 00 28 01 D1 FF E7 F9 E7 80 BD ...
T2E08 004:103.570 - 1.144ms returns 60 (0x3C)
T2E08 004:103.599 JLINK_ReadMemEx(0x11001154, 0x2 Bytes, Flags = 0x02000000)
T2E08 004:103.623    -- Read from C cache (2 bytes @ 0x11001154)
T2E08 004:103.646   Data:  FF E7
T2E08 004:103.669 - 0.070ms returns 2 (0x2)
T2E08 008:874.474 JLINK_ReadMemEx(0x11001174, 0x3C Bytes, Flags = 0x02000000)
T2E08 008:874.556    -- Read from C cache (60 bytes @ 0x11001174)
T2E08 008:874.593   Data:  FF F7 ED FF 02 B0 80 BD 80 B5 82 B0 01 90 FF E7 ...
T2E08 008:874.623 - 0.150ms returns 60 (0x3C)
T2E08 008:874.650 JLINK_ReadMemEx(0x11001174, 0x2 Bytes, Flags = 0x02000000)
T2E08 008:874.673    -- Read from C cache (2 bytes @ 0x11001174)
T2E08 008:874.702   Data:  FF F7
T2E08 008:874.733 - 0.084ms returns 2 (0x2)
T2E08 008:874.758 JLINK_ReadMemEx(0x11001176, 0x2 Bytes, Flags = 0x02000000)
T2E08 008:874.782    -- Read from C cache (2 bytes @ 0x11001176)
T2E08 008:874.810   Data:  ED FF
T2E08 008:874.838 - 0.080ms returns 2 (0x2)
T2E08 017:273.900 JLINK_ReadMemEx(0x11001164, 0x3C Bytes, Flags = 0x02000000)
T2E08 017:273.954    -- Read from C cache (60 bytes @ 0x11001164)
T2E08 017:273.980   Data:  80 B5 82 B0 01 46 01 A8 01 70 00 78 FF F7 FA FE ...
T2E08 017:274.000 - 0.102ms returns 60 (0x3C)
T2E08 017:274.018 JLINK_ReadMemEx(0x11001164, 0x2 Bytes, Flags = 0x02000000)
T2E08 017:274.032    -- Read from C cache (2 bytes @ 0x11001164)
T2E08 017:274.052   Data:  80 B5
T2E08 017:274.068 - 0.052ms returns 2 (0x2)
T2E08 017:274.086 JLINK_ReadMemEx(0x11001166, 0x2 Bytes, Flags = 0x02000000)
T2E08 017:274.100    -- Read from C cache (2 bytes @ 0x11001166)
T2E08 017:274.116   Data:  82 B0
T2E08 017:274.136 - 0.050ms returns 2 (0x2)
T2E08 017:274.162 JLINK_ReadMemEx(0x11001166, 0x2 Bytes, Flags = 0x02000000)
T2E08 017:274.176    -- Read from C cache (2 bytes @ 0x11001166)
T2E08 017:274.194   Data:  82 B0
T2E08 017:274.212 - 0.051ms returns 2 (0x2)
T2E08 017:274.228 JLINK_ReadMemEx(0x11001168, 0x3C Bytes, Flags = 0x02000000)
T2E08 017:274.240    -- Read from C cache (60 bytes @ 0x11001168)
T2E08 017:274.260   Data:  01 46 01 A8 01 70 00 78 FF F7 FA FE FF F7 ED FF ...
T2E08 017:274.278 - 0.052ms returns 60 (0x3C)
T2E08 017:274.292 JLINK_ReadMemEx(0x11001168, 0x2 Bytes, Flags = 0x02000000)
T2E08 017:274.308    -- Read from C cache (2 bytes @ 0x11001168)
T2E08 017:274.324   Data:  01 46
T2E08 017:274.342 - 0.050ms returns 2 (0x2)
T2E08 017:274.364 JLINK_ReadMemEx(0x11001168, 0x3C Bytes, Flags = 0x02000000)
T2E08 017:274.378    -- Read from C cache (60 bytes @ 0x11001168)
T2E08 017:274.396   Data:  01 46 01 A8 01 70 00 78 FF F7 FA FE FF F7 ED FF ...
T2E08 017:274.416 - 0.052ms returns 60 (0x3C)
T2E08 017:274.430 JLINK_ReadMemEx(0x11001168, 0x2 Bytes, Flags = 0x02000000)
T2E08 017:274.444    -- Read from C cache (2 bytes @ 0x11001168)
T2E08 017:274.460   Data:  01 46
T2E08 017:274.492 - 0.062ms returns 2 (0x2)
T2E08 017:274.508 JLINK_ReadMemEx(0x1100116A, 0x2 Bytes, Flags = 0x02000000)
T2E08 017:274.522    -- Read from C cache (2 bytes @ 0x1100116A)
T2E08 017:274.540   Data:  01 A8
T2E08 017:274.556 - 0.050ms returns 2 (0x2)
T3B6C 022:701.842 JLINK_ReadMemEx(0x110010A0, 0x2 Bytes, Flags = 0x02000000)
T3B6C 022:701.932    -- Read from C cache (2 bytes @ 0x110010A0)
T3B6C 022:701.968   Data:  80 B5
T3B6C 022:702.012 - 0.173ms returns 2 (0x2)
T3B6C 022:702.042 JLINK_HasError()
T3B6C 022:702.076 JLINK_SetBPEx(Addr = 0x11001164, Type = 0xFFFFFFF2)
T3B6C 022:702.116 - 0.039ms returns 0x00000002
T3B6C 022:702.156 JLINK_HasError()
T3B6C 022:702.196 JLINK_SetBPEx(Addr = 0x110010AC, Type = 0xFFFFFFF2)
T3B6C 022:702.232 - 0.036ms returns 0x00000003
T3B6C 022:702.272 JLINK_HasError()
T3B6C 022:702.310 JLINK_HasError()
T3B6C 022:702.348 JLINK_Go()
T3B6C 022:702.914   CPU_WriteMem(4 bytes @ 0xE0002000)
T3B6C 022:703.550   CPU_WriteMem(4 bytes @ 0xE0002000)
T3B6C 022:704.228   CPU_ReadMem(4 bytes @ 0xE0001000)
T3B6C 022:704.828   CPU_WriteMem(4 bytes @ 0xE0002008)
T3B6C 022:704.888   CPU_WriteMem(4 bytes @ 0xE000200C)
T3B6C 022:706.496 - 4.144ms 
T3B6C 022:807.074 JLINK_HasError()
T3B6C 022:807.186 JLINK_IsHalted()
T3B6C 022:810.726 - 3.537ms returns TRUE
T3B6C 022:810.802 JLINK_HasError()
T3B6C 022:810.830 JLINK_Halt()
T3B6C 022:810.854 - 0.022ms returns 0x00
T3B6C 022:810.880 JLINK_IsHalted()
T3B6C 022:810.904 - 0.023ms returns TRUE
T3B6C 022:810.928 JLINK_IsHalted()
T3B6C 022:810.950 - 0.022ms returns TRUE
T3B6C 022:810.976 JLINK_IsHalted()
T3B6C 022:811.004 - 0.027ms returns TRUE
T3B6C 022:811.030 JLINK_HasError()
T3B6C 022:811.060 JLINK_ReadReg(R15 (PC))
T3B6C 022:811.084 - 0.025ms returns 0x110010AC
T3B6C 022:811.108 JLINK_ReadReg(XPSR)
T3B6C 022:811.132 - 0.022ms returns 0x81000000
T3B6C 022:811.168 JLINK_HasError()
T3B6C 022:811.196 JLINK_ClrBPEx(BPHandle = 0x00000002)
T3B6C 022:811.220 - 0.025ms returns 0x00
T3B6C 022:811.244 JLINK_HasError()
T3B6C 022:811.270 JLINK_ClrBPEx(BPHandle = 0x00000003)
T3B6C 022:811.292 - 0.022ms returns 0x00
T3B6C 022:811.316 JLINK_HasError()
T3B6C 022:811.342 JLINK_HasError()
T3B6C 022:811.370 JLINK_ReadMemU32(0xE000ED30, 0x1 Items)
T3B6C 022:811.408   CPU_ReadMem(4 bytes @ 0xE000ED30)
T3B6C 022:812.042   Data:  02 00 00 00
T3B6C 022:812.100 - 0.729ms returns 1 (0x1)
T3B6C 022:812.280 JLINK_HasError()
T3B6C 022:812.316 JLINK_ReadReg(R0)
T3B6C 022:812.340 - 0.025ms returns 0x00000000
T3B6C 022:812.366 JLINK_ReadReg(R1)
T3B6C 022:812.388 - 0.021ms returns 0x500050EC
T3B6C 022:812.414 JLINK_ReadReg(R2)
T3B6C 022:812.436 - 0.022ms returns 0x5000501C
T3B6C 022:812.462 JLINK_ReadReg(R3)
T3B6C 022:812.484 - 0.022ms returns 0x5000509C
T3B6C 022:812.508 JLINK_ReadReg(R4)
T3B6C 022:812.532 - 0.022ms returns 0x110011D0
T3B6C 022:812.556 JLINK_ReadReg(R5)
T3B6C 022:812.580 - 0.021ms returns 0x18000000
T3B6C 022:812.604 JLINK_ReadReg(R6)
T3B6C 022:812.628 - 0.022ms returns 0x00000000
T3B6C 022:812.652 JLINK_ReadReg(R7)
T3B6C 022:812.674 - 0.022ms returns 0x00000000
T3B6C 022:812.698 JLINK_ReadReg(R8)
T3B6C 022:812.720 - 0.022ms returns 0x00000000
T3B6C 022:812.744 JLINK_ReadReg(R9)
T3B6C 022:812.766 - 0.021ms returns 0x00000000
T3B6C 022:812.792 JLINK_ReadReg(R10)
T3B6C 022:812.814 - 0.022ms returns 0x110011D0
T3B6C 022:812.838 JLINK_ReadReg(R11)
T3B6C 022:812.862 - 0.022ms returns 0x110011D0
T3B6C 022:812.886 JLINK_ReadReg(R12)
T3B6C 022:812.908 - 0.022ms returns 0x00000000
T3B6C 022:812.934 JLINK_ReadReg(R13 (SP))
T3B6C 022:812.956 - 0.022ms returns 0x18000268
T3B6C 022:812.982 JLINK_ReadReg(R14)
T3B6C 022:813.014 - 0.031ms returns 0x11000F13
T3B6C 022:813.040 JLINK_ReadReg(R15 (PC))
T3B6C 022:813.062 - 0.022ms returns 0x110010AC
T3B6C 022:813.086 JLINK_ReadReg(XPSR)
T3B6C 022:813.110 - 0.022ms returns 0x81000000
T3B6C 022:813.134 JLINK_ReadReg(MSP)
T3B6C 022:813.156 - 0.022ms returns 0x18000268
T3B6C 022:813.182 JLINK_ReadReg(PSP)
T3B6C 022:813.204 - 0.021ms returns 0xFFFFFFFC
T3B6C 022:813.238 JLINK_ReadReg(CFBP)
T3B6C 022:813.270 - 0.030ms returns 0x00000000
T2E08 022:814.058 JLINK_ReadMemEx(0x18000274, 0x4 Bytes, Flags = 0x02000000)
T2E08 022:814.126   CPU_ReadMem(64 bytes @ 0x18000240)
T2E08 022:815.412    -- Updating C cache (64 bytes @ 0x18000240)
T2E08 022:815.496    -- Read from C cache (4 bytes @ 0x18000274)
T2E08 022:815.532   Data:  33 01 00 11
T2E08 022:815.568 - 1.511ms returns 4 (0x4)
T2E08 022:815.850 JLINK_HasError()
T2E08 022:821.844 JLINK_ReadMemEx(0x110010AC, 0x3C Bytes, Flags = 0x02000000)
T2E08 022:821.936   CPU_ReadMem(128 bytes @ 0x11001080)
T2E08 022:823.748    -- Updating C cache (128 bytes @ 0x11001080)
T2E08 022:823.832    -- Read from C cache (60 bytes @ 0x110010AC)
T2E08 022:823.872   Data:  00 F0 02 F8 FF E7 FE E7 80 B5 FF E7 02 48 00 F0 ...
T2E08 022:823.908 - 2.065ms returns 60 (0x3C)
T2E08 022:823.946 JLINK_ReadMemEx(0x110010AC, 0x2 Bytes, Flags = 0x02000000)
T2E08 022:823.978    -- Read from C cache (2 bytes @ 0x110010AC)
T2E08 022:824.012   Data:  00 F0
T2E08 022:824.044 - 0.099ms returns 2 (0x2)
T2E08 022:824.076 JLINK_ReadMemEx(0x110010AE, 0x2 Bytes, Flags = 0x02000000)
T2E08 022:824.102    -- Read from C cache (2 bytes @ 0x110010AE)
T2E08 022:824.134   Data:  02 F8
T2E08 022:824.166 - 0.091ms returns 2 (0x2)
T3B6C 025:482.852 JLINK_ReadMemEx(0x110010AC, 0x2 Bytes, Flags = 0x02000000)
T3B6C 025:482.898    -- Read from C cache (2 bytes @ 0x110010AC)
T3B6C 025:482.916   Data:  00 F0
T3B6C 025:482.936 - 0.084ms returns 2 (0x2)
T3B6C 025:482.956 JLINK_HasError()
T3B6C 025:482.980 JLINK_Step()
T3B6C 025:483.494    -- Read from C cache (2 bytes @ 0x110010AC)
T3B6C 025:483.550   CPU_ReadMem(4 bytes @ 0xE000ED18)
T3B6C 025:483.964   CPU_WriteMem(4 bytes @ 0xE000ED18)
T3B6C 025:484.428   CPU_ReadMem(4 bytes @ 0xE000ED18)
T3B6C 025:484.948   CPU_WriteMem(4 bytes @ 0xE000ED18)
T3B6C 025:485.460   CPU_ReadMem(4 bytes @ 0xE0001004)
T3B6C 025:485.962    -- Read from C cache (2 bytes @ 0x110010AE)
T3B6C 025:485.996   -- Simulated
T3B6C 025:486.014 - 3.033ms returns 0
T3B6C 025:486.036 JLINK_HasError()
T3B6C 025:486.052 JLINK_ReadReg(R15 (PC))
T3B6C 025:486.066 - 0.014ms returns 0x110010B4
T3B6C 025:486.078 JLINK_ReadReg(XPSR)
T3B6C 025:486.090 - 0.011ms returns 0x81000000
T3B6C 025:486.502 JLINK_HasError()
T3B6C 025:486.532 JLINK_ReadReg(R0)
T3B6C 025:486.546 - 0.013ms returns 0x00000000
T3B6C 025:486.560 JLINK_ReadReg(R1)
T3B6C 025:486.572 - 0.011ms returns 0x500050EC
T3B6C 025:486.586 JLINK_ReadReg(R2)
T3B6C 025:486.596 - 0.011ms returns 0x5000501C
T3B6C 025:486.610 JLINK_ReadReg(R3)
T3B6C 025:486.622 - 0.011ms returns 0x5000509C
T3B6C 025:486.636 JLINK_ReadReg(R4)
T3B6C 025:486.646 - 0.011ms returns 0x110011D0
T3B6C 025:486.660 JLINK_ReadReg(R5)
T3B6C 025:486.672 - 0.011ms returns 0x18000000
T3B6C 025:486.684 JLINK_ReadReg(R6)
T3B6C 025:486.698 - 0.011ms returns 0x00000000
T3B6C 025:486.710 JLINK_ReadReg(R7)
T3B6C 025:486.722 - 0.011ms returns 0x00000000
T3B6C 025:486.734 JLINK_ReadReg(R8)
T3B6C 025:486.746 - 0.011ms returns 0x00000000
T3B6C 025:486.758 JLINK_ReadReg(R9)
T3B6C 025:486.772 - 0.011ms returns 0x00000000
T3B6C 025:486.784 JLINK_ReadReg(R10)
T3B6C 025:486.796 - 0.011ms returns 0x110011D0
T3B6C 025:486.810 JLINK_ReadReg(R11)
T3B6C 025:486.820 - 0.011ms returns 0x110011D0
T3B6C 025:486.834 JLINK_ReadReg(R12)
T3B6C 025:486.846 - 0.011ms returns 0x00000000
T3B6C 025:486.860 JLINK_ReadReg(R13 (SP))
T3B6C 025:486.872 - 0.012ms returns 0x18000268
T3B6C 025:486.884 JLINK_ReadReg(R14)
T3B6C 025:486.896 - 0.011ms returns 0x110010B1
T3B6C 025:486.908 JLINK_ReadReg(R15 (PC))
T3B6C 025:486.922 - 0.011ms returns 0x110010B4
T3B6C 025:486.934 JLINK_ReadReg(XPSR)
T3B6C 025:486.948 - 0.011ms returns 0x81000000
T3B6C 025:486.960 JLINK_ReadReg(MSP)
T3B6C 025:486.972 - 0.011ms returns 0x18000268
T3B6C 025:486.988 JLINK_ReadReg(PSP)
T3B6C 025:486.998 - 0.011ms returns 0xFFFFFFFC
T3B6C 025:487.012 JLINK_ReadReg(CFBP)
T3B6C 025:487.024 - 0.012ms returns 0x00000000
T2E08 025:488.392 JLINK_ReadMemEx(0x18000274, 0x4 Bytes, Flags = 0x02000000)
T2E08 025:488.516    -- Read from C cache (4 bytes @ 0x18000274)
T2E08 025:488.540   Data:  33 01 00 11
T2E08 025:488.556 - 0.167ms returns 4 (0x4)
T2E08 025:494.410 JLINK_HasError()
T2E08 025:497.922 JLINK_ReadMemEx(0x110010B4, 0x3C Bytes, Flags = 0x02000000)
T2E08 025:497.950    -- Read from C cache (60 bytes @ 0x110010B4)
T2E08 025:497.964   Data:  80 B5 FF E7 02 48 00 F0 5F F8 FF F7 DD FF F9 E7 ...
T2E08 025:497.978 - 0.056ms returns 60 (0x3C)
T2E08 025:497.988 JLINK_ReadMemEx(0x110010B4, 0x2 Bytes, Flags = 0x02000000)
T2E08 025:497.996    -- Read from C cache (2 bytes @ 0x110010B4)
T2E08 025:498.010   Data:  80 B5
T2E08 025:498.020 - 0.033ms returns 2 (0x2)
T2E08 025:498.032 JLINK_ReadMemEx(0x110010B6, 0x2 Bytes, Flags = 0x02000000)
T2E08 025:498.040    -- Read from C cache (2 bytes @ 0x110010B6)
T2E08 025:498.052   Data:  FF E7
T2E08 025:498.064 - 0.032ms returns 2 (0x2)
T3B6C 027:660.122 JLINK_ReadMemEx(0x110010B4, 0x2 Bytes, Flags = 0x02000000)
T3B6C 027:660.166    -- Read from C cache (2 bytes @ 0x110010B4)
T3B6C 027:660.188   Data:  80 B5
T3B6C 027:660.208 - 0.086ms returns 2 (0x2)
T3B6C 027:660.224 JLINK_HasError()
T3B6C 027:660.240 JLINK_Step()
T3B6C 027:660.694    -- Read from C cache (2 bytes @ 0x110010B4)
T3B6C 027:660.762   CPU_WriteMem(8 bytes @ 0x18000260)
T3B6C 027:661.276   -- Simulated
T3B6C 027:661.308 - 1.067ms returns 0
T3B6C 027:661.328 JLINK_HasError()
T3B6C 027:661.344 JLINK_ReadReg(R15 (PC))
T3B6C 027:661.356 - 0.013ms returns 0x110010B6
T3B6C 027:661.370 JLINK_ReadReg(XPSR)
T3B6C 027:661.382 - 0.012ms returns 0x81000000
T3B6C 027:661.612 JLINK_HasError()
T3B6C 027:661.642 JLINK_ReadReg(R0)
T3B6C 027:661.658 - 0.013ms returns 0x00000000
T3B6C 027:661.670 JLINK_ReadReg(R1)
T3B6C 027:661.684 - 0.011ms returns 0x500050EC
T3B6C 027:661.696 JLINK_ReadReg(R2)
T3B6C 027:661.708 - 0.011ms returns 0x5000501C
T3B6C 027:661.722 JLINK_ReadReg(R3)
T3B6C 027:661.738 - 0.015ms returns 0x5000509C
T3B6C 027:661.750 JLINK_ReadReg(R4)
T3B6C 027:661.760 - 0.011ms returns 0x110011D0
T3B6C 027:661.776 JLINK_ReadReg(R5)
T3B6C 027:661.786 - 0.011ms returns 0x18000000
T3B6C 027:661.798 JLINK_ReadReg(R6)
T3B6C 027:661.812 - 0.011ms returns 0x00000000
T3B6C 027:661.824 JLINK_ReadReg(R7)
T3B6C 027:661.836 - 0.012ms returns 0x00000000
T3B6C 027:661.850 JLINK_ReadReg(R8)
T3B6C 027:661.862 - 0.011ms returns 0x00000000
T3B6C 027:661.876 JLINK_ReadReg(R9)
T3B6C 027:661.888 - 0.011ms returns 0x00000000
T3B6C 027:661.900 JLINK_ReadReg(R10)
T3B6C 027:661.910 - 0.011ms returns 0x110011D0
T3B6C 027:661.926 JLINK_ReadReg(R11)
T3B6C 027:661.936 - 0.011ms returns 0x110011D0
T3B6C 027:661.948 JLINK_ReadReg(R12)
T3B6C 027:661.962 - 0.011ms returns 0x00000000
T3B6C 027:661.974 JLINK_ReadReg(R13 (SP))
T3B6C 027:661.988 - 0.012ms returns 0x18000260
T3B6C 027:662.000 JLINK_ReadReg(R14)
T3B6C 027:662.012 - 0.011ms returns 0x110010B1
T3B6C 027:662.026 JLINK_ReadReg(R15 (PC))
T3B6C 027:662.038 - 0.012ms returns 0x110010B6
T3B6C 027:662.052 JLINK_ReadReg(XPSR)
T3B6C 027:662.064 - 0.011ms returns 0x81000000
T3B6C 027:662.076 JLINK_ReadReg(MSP)
T3B6C 027:662.086 - 0.011ms returns 0x18000260
T3B6C 027:662.100 JLINK_ReadReg(PSP)
T3B6C 027:662.112 - 0.012ms returns 0xFFFFFFFC
T3B6C 027:662.124 JLINK_ReadReg(CFBP)
T3B6C 027:662.138 - 0.011ms returns 0x00000000
T2E08 027:663.616 JLINK_ReadMemEx(0x18000264, 0x4 Bytes, Flags = 0x02000000)
T2E08 027:663.654   CPU_ReadMem(64 bytes @ 0x18000240)
T2E08 027:664.676    -- Updating C cache (64 bytes @ 0x18000240)
T2E08 027:664.724    -- Read from C cache (4 bytes @ 0x18000264)
T2E08 027:664.742   Data:  B1 10 00 11
T2E08 027:664.762 - 1.146ms returns 4 (0x4)
T2E08 027:664.796 JLINK_ReadMemEx(0x18000260, 0x4 Bytes, Flags = 0x02000000)
T2E08 027:664.816    -- Read from C cache (4 bytes @ 0x18000260)
T2E08 027:664.832   Data:  00 00 00 00
T2E08 027:664.852 - 0.054ms returns 4 (0x4)
T2E08 027:664.864 JLINK_ReadMemEx(0x18000264, 0x4 Bytes, Flags = 0x02000000)
T2E08 027:664.880    -- Read from C cache (4 bytes @ 0x18000264)
T2E08 027:664.908   Data:  B1 10 00 11
T2E08 027:664.924 - 0.060ms returns 4 (0x4)
T2E08 027:664.950 JLINK_ReadMemEx(0x18000274, 0x4 Bytes, Flags = 0x02000000)
T2E08 027:664.964    -- Read from C cache (4 bytes @ 0x18000274)
T2E08 027:664.982   Data:  33 01 00 11
T2E08 027:664.998 - 0.050ms returns 4 (0x4)
T2E08 027:665.052 JLINK_HasError()
T2E08 027:669.402 JLINK_ReadMemEx(0x110010B6, 0x2 Bytes, Flags = 0x02000000)
T2E08 027:669.450    -- Read from C cache (2 bytes @ 0x110010B6)
T2E08 027:669.468   Data:  FF E7
T2E08 027:669.488 - 0.087ms returns 2 (0x2)
T2E08 027:669.504 JLINK_ReadMemEx(0x110010B8, 0x3C Bytes, Flags = 0x02000000)
T2E08 027:669.516    -- Read from C cache (60 bytes @ 0x110010B8)
T2E08 027:669.536   Data:  02 48 00 F0 5F F8 FF F7 DD FF F9 E7 A2 11 00 11 ...
T2E08 027:669.556 - 0.051ms returns 60 (0x3C)
T2E08 027:669.568 JLINK_ReadMemEx(0x110010B8, 0x2 Bytes, Flags = 0x02000000)
T2E08 027:669.580    -- Read from C cache (2 bytes @ 0x110010B8)
T2E08 027:669.604   Data:  02 48
T2E08 027:669.620 - 0.051ms returns 2 (0x2)
T3B6C 028:247.840 JLINK_ReadMemEx(0x110010B6, 0x2 Bytes, Flags = 0x02000000)
T3B6C 028:247.932    -- Read from C cache (2 bytes @ 0x110010B6)
T3B6C 028:247.968   Data:  FF E7
T3B6C 028:247.996 - 0.161ms returns 2 (0x2)
T3B6C 028:248.026 JLINK_HasError()
T3B6C 028:248.054 JLINK_Step()
T3B6C 028:248.612    -- Read from C cache (2 bytes @ 0x110010B6)
T3B6C 028:248.704   -- Simulated
T3B6C 028:248.748 - 0.689ms returns 0
T3B6C 028:248.790 JLINK_HasError()
T3B6C 028:248.832 JLINK_ReadReg(R15 (PC))
T3B6C 028:248.870 - 0.035ms returns 0x110010B8
T3B6C 028:248.896 JLINK_ReadReg(XPSR)
T3B6C 028:248.918 - 0.021ms returns 0x81000000
T3B6C 028:249.466 JLINK_HasError()
T3B6C 028:249.548 JLINK_ReadReg(R0)
T3B6C 028:249.574 - 0.025ms returns 0x00000000
T3B6C 028:249.600 JLINK_ReadReg(R1)
T3B6C 028:249.620 - 0.019ms returns 0x500050EC
T3B6C 028:249.642 JLINK_ReadReg(R2)
T3B6C 028:249.670 - 0.026ms returns 0x5000501C
T3B6C 028:249.692 JLINK_ReadReg(R3)
T3B6C 028:249.716 - 0.020ms returns 0x5000509C
T3B6C 028:249.734 JLINK_ReadReg(R4)
T3B6C 028:249.756 - 0.020ms returns 0x110011D0
T3B6C 028:249.780 JLINK_ReadReg(R5)
T3B6C 028:249.798 - 0.019ms returns 0x18000000
T3B6C 028:249.820 JLINK_ReadReg(R6)
T3B6C 028:249.844 - 0.020ms returns 0x00000000
T3B6C 028:249.866 JLINK_ReadReg(R7)
T3B6C 028:249.884 - 0.020ms returns 0x00000000
T3B6C 028:249.908 JLINK_ReadReg(R8)
T3B6C 028:249.930 - 0.020ms returns 0x00000000
T3B6C 028:249.952 JLINK_ReadReg(R9)
T3B6C 028:249.972 - 0.019ms returns 0x00000000
T3B6C 028:249.994 JLINK_ReadReg(R10)
T3B6C 028:250.016 - 0.020ms returns 0x110011D0
T3B6C 028:250.038 JLINK_ReadReg(R11)
T3B6C 028:250.058 - 0.020ms returns 0x110011D0
T3B6C 028:250.080 JLINK_ReadReg(R12)
T3B6C 028:250.102 - 0.020ms returns 0x00000000
T3B6C 028:250.124 JLINK_ReadReg(R13 (SP))
T3B6C 028:250.144 - 0.020ms returns 0x18000260
T3B6C 028:250.166 JLINK_ReadReg(R14)
T3B6C 028:250.188 - 0.020ms returns 0x110010B1
T3B6C 028:250.212 JLINK_ReadReg(R15 (PC))
T3B6C 028:250.234 - 0.020ms returns 0x110010B8
T3B6C 028:250.256 JLINK_ReadReg(XPSR)
T3B6C 028:250.276 - 0.020ms returns 0x81000000
T3B6C 028:250.300 JLINK_ReadReg(MSP)
T3B6C 028:250.320 - 0.020ms returns 0x18000260
T3B6C 028:250.342 JLINK_ReadReg(PSP)
T3B6C 028:250.364 - 0.020ms returns 0xFFFFFFFC
T3B6C 028:250.388 JLINK_ReadReg(CFBP)
T3B6C 028:250.406 - 0.020ms returns 0x00000000
T2E08 028:253.420 JLINK_ReadMemEx(0x18000264, 0x4 Bytes, Flags = 0x02000000)
T2E08 028:253.492    -- Read from C cache (4 bytes @ 0x18000264)
T2E08 028:253.524   Data:  B1 10 00 11
T2E08 028:253.556 - 0.135ms returns 4 (0x4)
T2E08 028:253.588 JLINK_ReadMemEx(0x18000260, 0x4 Bytes, Flags = 0x02000000)
T2E08 028:253.610    -- Read from C cache (4 bytes @ 0x18000260)
T2E08 028:253.642   Data:  00 00 00 00
T2E08 028:253.670 - 0.083ms returns 4 (0x4)
T2E08 028:253.696 JLINK_ReadMemEx(0x18000264, 0x4 Bytes, Flags = 0x02000000)
T2E08 028:253.722    -- Read from C cache (4 bytes @ 0x18000264)
T2E08 028:253.766   Data:  B1 10 00 11
T2E08 028:253.796 - 0.099ms returns 4 (0x4)
T2E08 028:253.824 JLINK_ReadMemEx(0x18000274, 0x4 Bytes, Flags = 0x02000000)
T2E08 028:253.846    -- Read from C cache (4 bytes @ 0x18000274)
T2E08 028:253.876   Data:  33 01 00 11
T2E08 028:253.904 - 0.080ms returns 4 (0x4)
T2E08 028:253.952 JLINK_HasError()
T2E08 028:258.998 JLINK_ReadMemEx(0x110010B8, 0x3C Bytes, Flags = 0x02000000)
T2E08 028:259.060    -- Read from C cache (60 bytes @ 0x110010B8)
T2E08 028:259.094   Data:  02 48 00 F0 5F F8 FF F7 DD FF F9 E7 A2 11 00 11 ...
T2E08 028:259.124 - 0.126ms returns 60 (0x3C)
T2E08 028:259.152 JLINK_ReadMemEx(0x110010B8, 0x2 Bytes, Flags = 0x02000000)
T2E08 028:259.174    -- Read from C cache (2 bytes @ 0x110010B8)
T2E08 028:259.204   Data:  02 48
T2E08 028:259.232 - 0.082ms returns 2 (0x2)
T2E08 028:259.258 JLINK_ReadMemEx(0x110010BA, 0x2 Bytes, Flags = 0x02000000)
T2E08 028:259.290    -- Read from C cache (2 bytes @ 0x110010BA)
T2E08 028:259.318   Data:  00 F0
T2E08 028:259.348 - 0.090ms returns 2 (0x2)
T2E08 028:259.388 JLINK_ReadMemEx(0x110010BA, 0x2 Bytes, Flags = 0x02000000)
T2E08 028:259.412    -- Read from C cache (2 bytes @ 0x110010BA)
T2E08 028:259.440   Data:  00 F0
T2E08 028:259.468 - 0.081ms returns 2 (0x2)
T2E08 028:259.494 JLINK_ReadMemEx(0x110010BC, 0x3C Bytes, Flags = 0x02000000)
T2E08 028:259.516    -- Read from C cache (60 bytes @ 0x110010BC)
T2E08 028:259.548   Data:  5F F8 FF F7 DD FF F9 E7 A2 11 00 11 84 B0 00 91 ...
T2E08 028:259.578 - 0.084ms returns 60 (0x3C)
T2E08 028:259.600 JLINK_ReadMemEx(0x110010BC, 0x2 Bytes, Flags = 0x02000000)
T2E08 028:259.622    -- Read from C cache (2 bytes @ 0x110010BC)
T2E08 028:259.652   Data:  5F F8
T2E08 028:259.680 - 0.078ms returns 2 (0x2)
T3B6C 030:023.028 JLINK_ReadMemEx(0x110010B8, 0x2 Bytes, Flags = 0x02000000)
T3B6C 030:023.100    -- Read from C cache (2 bytes @ 0x110010B8)
T3B6C 030:023.132   Data:  02 48
T3B6C 030:023.164 - 0.139ms returns 2 (0x2)
T3B6C 030:023.190 JLINK_HasError()
T3B6C 030:023.220 JLINK_Step()
T3B6C 030:023.818    -- Read from C cache (2 bytes @ 0x110010B8)
T3B6C 030:023.878    -- Read from C cache (4 bytes @ 0x110010C4)
T3B6C 030:023.914   -- Simulated
T3B6C 030:023.942 - 0.721ms returns 0
T3B6C 030:023.978 JLINK_HasError()
T3B6C 030:024.004 JLINK_ReadReg(R15 (PC))
T3B6C 030:024.026 - 0.022ms returns 0x110010BA
T3B6C 030:024.054 JLINK_ReadReg(XPSR)
T3B6C 030:024.074 - 0.020ms returns 0x81000000
T3B6C 030:025.210 JLINK_HasError()
T3B6C 030:025.264 JLINK_SetBPEx(Addr = 0x110010BE, Type = 0xFFFFFFF2)
T3B6C 030:025.290 - 0.026ms returns 0x00000004
T3B6C 030:025.316 JLINK_HasError()
T3B6C 030:025.338 JLINK_SetBPEx(Addr = 0x11001164, Type = 0xFFFFFFF2)
T3B6C 030:025.360 - 0.022ms returns 0x00000005
T3B6C 030:025.382 JLINK_HasError()
T3B6C 030:025.404 JLINK_SetBPEx(Addr = 0x110010AC, Type = 0xFFFFFFF2)
T3B6C 030:025.428 - 0.022ms returns 0x00000006
T3B6C 030:025.482 JLINK_HasError()
T3B6C 030:025.504 JLINK_HasError()
T3B6C 030:025.530 JLINK_Go()
T3B6C 030:025.568   CPU_WriteMem(4 bytes @ 0xE0002000)
T3B6C 030:026.292   CPU_WriteMem(4 bytes @ 0xE0002000)
T3B6C 030:026.912   CPU_WriteMem(4 bytes @ 0xE0002000)
T3B6C 030:027.588   CPU_ReadMem(4 bytes @ 0xE0001000)
T3B6C 030:028.272   CPU_WriteMem(4 bytes @ 0xE0002008)
T3B6C 030:028.326   CPU_WriteMem(4 bytes @ 0xE000200C)
T3B6C 030:028.358   CPU_WriteMem(4 bytes @ 0xE0002010)
T3B6C 030:029.548   CPU_WriteMem(4 bytes @ 0xE0001004)
T3B6C 030:031.876 - 6.344ms 
T3B6C 030:132.324 JLINK_HasError()
T3B6C 030:132.404 JLINK_IsHalted()
T3B6C 030:135.766 - 3.357ms returns TRUE
T3B6C 030:135.844 JLINK_HasError()
T3B6C 030:135.872 JLINK_Halt()
T3B6C 030:135.898 - 0.023ms returns 0x00
T3B6C 030:135.924 JLINK_IsHalted()
T3B6C 030:135.946 - 0.022ms returns TRUE
T3B6C 030:135.972 JLINK_IsHalted()
T3B6C 030:135.994 - 0.022ms returns TRUE
T3B6C 030:136.020 JLINK_IsHalted()
T3B6C 030:136.042 - 0.022ms returns TRUE
T3B6C 030:136.068 JLINK_HasError()
T3B6C 030:136.092 JLINK_ReadReg(R15 (PC))
T3B6C 030:136.132 - 0.036ms returns 0x11001164
T3B6C 030:136.166 JLINK_ReadReg(XPSR)
T3B6C 030:136.188 - 0.022ms returns 0x21000000
T3B6C 030:136.224 JLINK_HasError()
T3B6C 030:136.252 JLINK_ClrBPEx(BPHandle = 0x00000004)
T3B6C 030:136.276 - 0.024ms returns 0x00
T3B6C 030:136.300 JLINK_HasError()
T3B6C 030:136.326 JLINK_ClrBPEx(BPHandle = 0x00000005)
T3B6C 030:136.348 - 0.023ms returns 0x00
T3B6C 030:136.374 JLINK_HasError()
T3B6C 030:136.400 JLINK_ClrBPEx(BPHandle = 0x00000006)
T3B6C 030:136.422 - 0.023ms returns 0x00
T3B6C 030:136.448 JLINK_HasError()
T3B6C 030:136.474 JLINK_HasError()
T3B6C 030:136.502 JLINK_ReadMemU32(0xE000ED30, 0x1 Items)
T3B6C 030:136.540   CPU_ReadMem(4 bytes @ 0xE000ED30)
T3B6C 030:137.190   Data:  02 00 00 00
T3B6C 030:137.248 - 0.747ms returns 1 (0x1)
T3B6C 030:137.686 JLINK_HasError()
T3B6C 030:137.744 JLINK_ReadReg(R0)
T3B6C 030:137.772 - 0.027ms returns 0x00000068
T3B6C 030:137.798 JLINK_ReadReg(R1)
T3B6C 030:137.824 - 0.022ms returns 0x500050EC
T3B6C 030:137.846 JLINK_ReadReg(R2)
T3B6C 030:137.868 - 0.021ms returns 0x5000501C
T3B6C 030:137.894 JLINK_ReadReg(R3)
T3B6C 030:137.916 - 0.022ms returns 0x5000509C
T3B6C 030:137.942 JLINK_ReadReg(R4)
T3B6C 030:137.964 - 0.022ms returns 0x110011D0
T3B6C 030:137.990 JLINK_ReadReg(R5)
T3B6C 030:138.012 - 0.022ms returns 0x18000000
T3B6C 030:138.038 JLINK_ReadReg(R6)
T3B6C 030:138.060 - 0.021ms returns 0x00000000
T3B6C 030:138.086 JLINK_ReadReg(R7)
T3B6C 030:138.108 - 0.022ms returns 0x00000000
T3B6C 030:138.132 JLINK_ReadReg(R8)
T3B6C 030:138.154 - 0.022ms returns 0x00000000
T3B6C 030:138.180 JLINK_ReadReg(R9)
T3B6C 030:138.202 - 0.022ms returns 0x00000000
T3B6C 030:138.228 JLINK_ReadReg(R10)
T3B6C 030:138.250 - 0.021ms returns 0x110011D0
T3B6C 030:138.276 JLINK_ReadReg(R11)
T3B6C 030:138.298 - 0.022ms returns 0x110011D0
T3B6C 030:138.320 JLINK_ReadReg(R12)
T3B6C 030:138.342 - 0.022ms returns 0x00000000
T3B6C 030:138.368 JLINK_ReadReg(R13 (SP))
T3B6C 030:138.394 - 0.023ms returns 0x18000250
T3B6C 030:138.416 JLINK_ReadReg(R14)
T3B6C 030:138.438 - 0.021ms returns 0x11001197
T3B6C 030:138.464 JLINK_ReadReg(R15 (PC))
T3B6C 030:138.486 - 0.022ms returns 0x11001164
T3B6C 030:138.524 JLINK_ReadReg(XPSR)
T3B6C 030:138.548 - 0.023ms returns 0x21000000
T3B6C 030:138.572 JLINK_ReadReg(MSP)
T3B6C 030:138.596 - 0.022ms returns 0x18000250
T3B6C 030:138.618 JLINK_ReadReg(PSP)
T3B6C 030:138.644 - 0.022ms returns 0xFFFFFFFC
T3B6C 030:138.666 JLINK_ReadReg(CFBP)
T3B6C 030:138.688 - 0.021ms returns 0x00000000
T2E08 030:139.568 JLINK_ReadMemEx(0x1800025C, 0x4 Bytes, Flags = 0x02000000)
T2E08 030:139.638   CPU_ReadMem(64 bytes @ 0x18000240)
T2E08 030:140.954    -- Updating C cache (64 bytes @ 0x18000240)
T2E08 030:141.034    -- Read from C cache (4 bytes @ 0x1800025C)
T2E08 030:141.068   Data:  BF 10 00 11
T2E08 030:141.108 - 1.539ms returns 4 (0x4)
T2E08 030:141.164 JLINK_ReadMemEx(0x18000258, 0x4 Bytes, Flags = 0x02000000)
T2E08 030:141.200    -- Read from C cache (4 bytes @ 0x18000258)
T2E08 030:141.232   Data:  00 00 00 00
T2E08 030:141.268 - 0.101ms returns 4 (0x4)
T2E08 030:141.292 JLINK_ReadMemEx(0x1800025C, 0x4 Bytes, Flags = 0x02000000)
T2E08 030:141.318    -- Read from C cache (4 bytes @ 0x1800025C)
T2E08 030:141.350   Data:  BF 10 00 11
T2E08 030:141.382 - 0.090ms returns 4 (0x4)
T2E08 030:141.414 JLINK_ReadMemEx(0x18000264, 0x4 Bytes, Flags = 0x02000000)
T2E08 030:141.440    -- Read from C cache (4 bytes @ 0x18000264)
T2E08 030:141.472   Data:  B1 10 00 11
T2E08 030:141.514 - 0.101ms returns 4 (0x4)
T2E08 030:141.546 JLINK_ReadMemEx(0x18000260, 0x4 Bytes, Flags = 0x02000000)
T2E08 030:141.572    -- Read from C cache (4 bytes @ 0x18000260)
T2E08 030:141.604   Data:  00 00 00 00
T2E08 030:141.636 - 0.090ms returns 4 (0x4)
T2E08 030:141.660 JLINK_ReadMemEx(0x18000264, 0x4 Bytes, Flags = 0x02000000)
T2E08 030:141.686    -- Read from C cache (4 bytes @ 0x18000264)
T2E08 030:141.718   Data:  B1 10 00 11
T2E08 030:141.750 - 0.089ms returns 4 (0x4)
T2E08 030:141.780 JLINK_ReadMemEx(0x18000274, 0x4 Bytes, Flags = 0x02000000)
T2E08 030:141.814    -- Read from C cache (4 bytes @ 0x18000274)
T2E08 030:141.856   Data:  33 01 00 11
T2E08 030:141.888 - 0.109ms returns 4 (0x4)
T2E08 030:155.194 JLINK_HasError()
T2E08 030:160.742 JLINK_ReadMemEx(0x11001164, 0x3C Bytes, Flags = 0x02000000)
T2E08 030:160.838   CPU_ReadMem(128 bytes @ 0x11001140)
T2E08 030:163.056    -- Updating C cache (128 bytes @ 0x11001140)
T2E08 030:163.132    -- Read from C cache (60 bytes @ 0x11001164)
T2E08 030:163.172   Data:  80 B5 82 B0 01 46 01 A8 01 70 00 78 FF F7 FA FE ...
T2E08 030:163.200 - 2.462ms returns 60 (0x3C)
T2E08 030:163.238 JLINK_ReadMemEx(0x11001164, 0x2 Bytes, Flags = 0x02000000)
T2E08 030:163.268    -- Read from C cache (2 bytes @ 0x11001164)
T2E08 030:163.296   Data:  80 B5
T2E08 030:163.328 - 0.090ms returns 2 (0x2)
T2E08 030:163.356 JLINK_ReadMemEx(0x11001166, 0x2 Bytes, Flags = 0x02000000)
T2E08 030:163.386    -- Read from C cache (2 bytes @ 0x11001166)
T2E08 030:163.418   Data:  82 B0
T2E08 030:163.446 - 0.091ms returns 2 (0x2)
T2E08 030:163.504 JLINK_ReadMemEx(0x11001166, 0x2 Bytes, Flags = 0x02000000)
T2E08 030:163.530    -- Read from C cache (2 bytes @ 0x11001166)
T2E08 030:163.558   Data:  82 B0
T2E08 030:163.590 - 0.087ms returns 2 (0x2)
T2E08 030:163.612 JLINK_ReadMemEx(0x11001168, 0x3C Bytes, Flags = 0x02000000)
T2E08 030:163.638    -- Read from C cache (60 bytes @ 0x11001168)
T2E08 030:163.674   Data:  01 46 01 A8 01 70 00 78 FF F7 FA FE FF F7 ED FF ...
T2E08 030:163.702 - 0.088ms returns 60 (0x3C)
T2E08 030:163.728 JLINK_ReadMemEx(0x11001168, 0x2 Bytes, Flags = 0x02000000)
T2E08 030:163.760    -- Read from C cache (2 bytes @ 0x11001168)
T2E08 030:163.804   Data:  01 46
T2E08 030:163.850 - 0.120ms returns 2 (0x2)
